EXPLAIN
TAG	EISPOT
TITLE	LABEL	Potentiostatic EIS	Test Identifier
DATE	LABEL	24/2/2026	Date
TIME	LABEL	4:20:02	Time
NOTES	NOTES	1	Notes...
	
PSTAT	PSTAT	REF3000-46189	Potentiostat
VDC	POTEN	2,13480E+000	F	Last Measured Potential (V)
FREQINIT	QUANT	1,00000E+005	Initial Freq. (Hz)
FREQFINAL	QUANT	1,00000E-001	Final Freq. (Hz)
PTSPERDEC	QUANT	1,00000E+001	Points/decade
VAC	QUANT	5,00000E+000	AC Voltage (mV rms)
AREA	QUANT	2,50000E+001	Sample Area (cm^2)
SPEED	SELECTOR	1	Optimize for:
DRIFTCOR	SELECTOR	0	Drift Correction
THD	SELECTOR	0	THD
ZGUESS	QUANT	2,00000E-002	Estimated Z (ohms)
EOC	QUANT	0,3422316	Open Circuit (V)
SEQUENCER	TOGGLE	TRUE	Run as Sequence
PSTATMODEL	IQUANT	6	Pstat Model
PSTATSECTION	LABEL	REF30K-46189	Pstat Section
PSTATSERIALNO	LABEL	46189	Pstat Serial Number
CTRLMODE	IQUANT	1	Control Mode
ELECTROMETER	IQUANT	0	RE=0 or CS=1
IESTAB	IQUANT	0	I/E Stability
CASPEED	IQUANT	3	Control Amp Speed
CONVENTION	IQUANT	1	Current Convention
ICHRANGE	IQUANT	2	Ich Range
ICHRANGEMODE	TOGGLE	F	Ich Auto Range
ICHOFFSETENABLE	TOGGLE	T	Ich Offset Enable
ICHOFFSET	QUANT	0	Ich Offset (V)
ICHFILTER	IQUANT	3	Ich Filter
VCHRANGE	IQUANT	2	Vch Range
VCHRANGEMODE	TOGGLE	F	Vch Auto Range
VCHOFFSETENABLE	TOGGLE	T	Vch Offset Enable
VCHOFFSET	QUANT	0	Vch Offset (V)
VCHFILTER	IQUANT	3	Vch Filter
ACHRANGE	IQUANT	2	Ach Range
ACHOFFSETENABLE	TOGGLE	F	Ach Offset Enable
ACHOFFSET	QUANT	0	Ach Offset (V)
ACHFILTER	IQUANT	1	Ach Filter
IERANGELOWERLIMIT	IQUANT	13	I/E Range Lower Limit
IERANGEMODE	TOGGLE	F	I/E AutoRange
IERANGE	IQUANT	13	I/E Range
POSFEEDENABLE	TOGGLE	F	Positive Feedback IR Comp
POSFEEDRESISTANCE	QUANT	0	Positive Feedback Resistance (ohm)
ACHSELECT	IQUANT	4	Ach Select
SENSECABLEID	IQUANT	14	Sense Cable ID
PWRCABLEID	IQUANT	8	Power Cable ID
DCCALDATE	LABEL	10/1/2025	DC Calibration Date
ACCALDATE	LABEL	10/1/2025	AC Calibration Date
THERMOSELECT	IQUANT	1	Thermo Select
FRAMEWORKVERSION	LABEL	7.10.1	Framework Version
INSTRUMENTVERSION	LABEL	4.80	Instrument Version
COMMVERSION	LABEL	5.10	Communications Version
CPUPLDVERSION	LABEL	6.00	CPU PLD Version
CTRLPLDVERSION	LABEL	3.21	CTRL PLD Version
PSTATPLDVERSION	LABEL	0.00	PSTAT PLD Version
BOOSTERDCCALDATE	LABEL	10/1/2025	Booster DC Calibration Date
ZCURVE	TABLE
	Pt	Time	Freq	Zreal	Zimag	Zsig	Zmod	Zphz	Idc	Vdc	IERange	Imod	Vmod	Temp
	#	s	Hz	ohm	ohm	V	ohm	°	A	V	#	A	V	°C
	0	3	100078,1	0,0127857	0,0060864	1	0,0141605	25,45584	17,66272	2,131203	13	0,3545815	0,0049998	64,09336
	1	5	79453,13	0,0126125	0,0049387	1	0,0135449	21,38381	17,64832	2,131188	13	0,4891017	0,006603	64,0984
	2	7	63140,62	0,0124728	0,0040038	1	0,0130996	17,79663	17,63713	2,131182	13	0,4923137	0,0064315	64,09657
	3	9	50203,12	0,0123473	0,003248	1	0,0127674	14,7378	17,63417	2,131195	13	0,4921237	0,0062692	64,09377
	4	10	39890,62	0,0122532	0,0026215	1	0,0125305	12,07591	17,62922	2,131185	13	0,5004357	0,0062599	64,09464
	5	12	31640,63	0,0121832	0,0021056	1	0,0123638	9,80549	17,62446	2,131196	13	0,4959573	0,0061242	64,09628
	6	14	25171,88	0,0121275	0,0016923	1	0,012245	7,944037	17,62196	2,131175	13	0,4887679	0,0059797	64,09665
	7	15	20015,62	0,0120872	0,0013517	1	0,0121625	6,380976	17,61775	2,131172	13	0,4811133	0,0058481	64,08836
	8	17	15890,62	0,0120542	0,0010701	1	0,0121016	5,072844	17,61606	2,1312	13	0,4724686	0,0057154	64,10236
	9	18	12609,38	0,012038	0,0008384	1	0,0120672	3,984185	17,61488	2,131194	13	0,4604345	0,0055547	64,09756
	10	20	10078,13	0,0120253	0,0006589	1	0,0120434	3,136252	17,61367	2,131187	13	0,4484233	0,0053996	64,08725
	11	22	8015,625	0,0120149	0,000499	1	0,0120253	2,378075	17,61455	2,131199	13	0,4408998	0,0053014	64,10329
	12	23	6328,125	0,012014	0,0003613	1	0,0120194	1,722683	17,61237	2,131199	13	0,4343064	0,0052198	64,10437
	13	25	5015,625	0,0120142	0,0002499	1	0,0120168	1,191541	17,60765	2,131159	13	0,4287017	0,0051514	64,09289
	14	27	3984,375	0,0120168	0,0001476	1	0,0120177	0,7035981	17,61143	2,131201	13	0,4244155	0,0051004	64,11312
	15	28	3170,956	0,0120225	6,166642E-005	1	0,0120227	0,2938809	17,61121	2,131192	13	0,4210103	0,0050616	64,11189
	16	30	2527,573	0,0120377	-2,063964E-005	1	0,0120377	-0,0982384	17,60726	2,131183	13	0,418406	0,0050366	64,10429
	17	32	1976,103	0,0120582	-0,0001087	1	0,0120587	-0,5166632	17,60577	2,13119	13	0,4169057	0,0050273	64,11396
	18	33	1577,524	0,0120849	-0,0001877	1	0,0120864	-0,889664	17,60346	2,131153	13	0,4145666	0,0050106	64,11858
	19	35	1265,625	0,0121185	-0,0002596	1	0,0121213	-1,227333	17,60271	2,131188	13	0,4132534	0,0050091	64,11105
	20	36	998,264	0,0121622	-0,0003435	1	0,012167	-1,617869	17,60304	2,131201	13	0,4110188	0,0050009	64,10957
	21	38	796,875	0,012217	-0,0004244	1	0,0122243	-1,989485	17,59876	2,13114	13	0,4092022	0,0050022	64,12262
	22	39	627,7902	0,0122839	-0,0005173	1	0,0122948	-2,411322	17,60075	2,131202	13	0,4065337	0,0049982	64,11642
	23	41	505,5147	0,0123668	-0,0006038	1	0,0123816	-2,795146	17,60242	2,131203	13	0,3974447	0,004959	64,12155
	24	42	397,9953	0,0124746	-0,0006956	1	0,012494	-3,191653	17,59996	2,131157	13	0,4013078	0,0050365	64,11603
	25	44	315,5048	0,0126062	-0,000781	1	0,0126304	-3,545072	17,60126	2,131197	13	0,39528	0,005006	64,1151
	26	46	252,4038	0,0127537	-0,0008526	1	0,0127822	-3,824763	17,60261	2,13118	13	0,390347	0,0049978	64,12492
	27	47	198,6229	0,0129362	-0,0009091	1	0,0129681	-4,019919	17,60126	2,131152	13	0,3848523	0,0049958	64,12069
	28	49	158,3615	0,0131221	-0,0009357	1	0,0131554	-4,078894	17,6006	2,131145	13	0,379422	0,0049946	64,13298
	29	50	125,558	0,0133167	-0,0009299	1	0,0133491	-3,994659	17,60475	2,131179	13	0,37413	0,0049963	64,13047
	30	52	100,4464	0,0134949	-0,0008947	1	0,0135245	-3,792904	17,6043	2,131174	13	0,3693431	0,0049964	64,14452
	31	53	79,00281	0,0136693	-0,0008296	1	0,0136945	-3,473153	17,60389	2,131154	13	0,3646453	0,0049944	64,14301
	32	55	63,3446	0,0138026	-0,0007536	1	0,0138232	-3,1253	17,60833	2,131178	13	0,3611458	0,0049927	64,15183
	33	57	50,22321	0,0139215	-0,0006713	1	0,0139376	-2,760539	17,61047	2,13118	13	0,3577142	0,004986	64,16521
	34	58	38,42213	0,0140241	-0,0005744	1	0,0140359	-2,345334	17,61021	2,13117	13	0,3535961	0,0049632	64,17883
	35	60	31,25	0,0140865	-0,0005007	1	0,0140954	-2,035734	17,61346	2,131172	13	0,3499452	0,0049327	64,17523
	36	61	24,93351	0,0141401	-0,0004347	1	0,0141468	-1,760724	17,61425	2,131174	13	0,3416701	0,0048336	64,17062
	37	63	19,86229	0,01419	-0,0003737	1	0,0141949	-1,508489	17,61572	2,131162	13	0,3772882	0,0053556	64,19336
	38	64	15,625	0,0142209	-0,0003255	1	0,0142246	-1,311349	17,61792	2,131166	13	0,3520532	0,0050078	64,20175
	39	66	12,40079	0,0142504	-0,0002795	1	0,0142531	-1,123809	17,6181	2,131185	13	0,3503319	0,0049933	64,20474
	40	67	9,93114	0,014279	-0,000247	1	0,0142811	-0,990953	17,61366	2,131172	13	0,3501326	0,0050003	64,21794
	41	69	7,944915	0,0142973	-0,0002201	1	0,014299	-0,8819075	17,61541	2,131165	13	0,3498475	0,0050025	64,22156
	42	71	6,317385	0,0143219	-0,0001905	1	0,0143231	-0,7618771	17,61528	2,131163	13	0,3489758	0,0049984	64,23241
	43	73	5,008013	0,0143421	-0,0001729	1	0,0143431	-0,6908072	17,61506	2,131169	13	0,3489511	0,0050051	64,23779
	44	76	3,945707	0,0143565	-0,0001584	1	0,0143573	-0,6320019	17,61377	2,13116	13	0,3479138	0,0049951	64,24937
	45	79	3,158693	0,0143667	-0,0001399	1	0,0143674	-0,5579309	17,61403	2,131151	13	0,347852	0,0049977	64,24998
	46	82	2,504006	0,0143864	-0,0001222	1	0,0143869	-0,4866096	17,61184	2,13116	13	0,3367688	0,0048517	64,25586
	47	85	1,998082	0,0143943	-0,0001411	1	0,014395	-0,5615128	17,61051	2,131157	13	0,3528509	0,0050839	64,25625
	48	90	1,584686	0,0144231	-0,0001201	1	0,0144236	-0,4769945	17,61088	2,131163	13	0,3489192	0,0050356	64,26683
	49	96	1,266892	0,0144436	-0,0001083	1	0,014444	-0,4297922	17,61187	2,131168	13	0,3473988	0,0050197	64,28714
	50	104	0,999041	0,0144505	-9,152583E-005	1	0,0144508	-0,362891	17,61486	2,131166	13	0,3460412	0,0050018	64,30846
	51	109	0,7923428	0,0144499	-0,0001077	1	0,0144503	-0,426896	17,61714	2,131156	13	0,3464353	0,0050068	64,34179
	52	117	0,6334459	0,0145067	-9,04144E-005	1	0,014507	-0,3570956	17,61764	2,131166	13	0,3448431	0,0050031	64,3577
	53	125	0,5040323	0,0144898	-9,38294E-005	1	0,0144901	-0,3710174	17,607	2,131162	13	0,3454314	0,0050056	64,37634
	54	135	0,400641	0,0144679	-9,387809E-005	1	0,0144682	-0,3717712	17,58951	2,131166	13	0,3452864	0,0049959	64,35847
	55	146	0,316723	0,0144702	-0,0001101	1	0,0144706	-0,435968	17,5548	2,13116	13	0,3456124	0,0050013	64,26551
	56	163	0,2520161	0,014471	-8,353918E-005	1	0,0144713	-0,3307568	17,5053	2,131162	13	0,3455667	0,0050009	64,11827
	57	185	0,2003205	0,0145059	-0,0001028	1	0,0145063	-0,4059861	17,45629	2,131161	13	0,3447057	0,0050005	63,97703
	58	211	0,1588983	0,014576	-0,000106	1	0,0145764	-0,4166589	17,41248	2,131166	13	0,3430135	0,0049999	63,86533
	59	237	0,1260081	0,0146633	-8,638363E-005	1	0,0146636	-0,3375329	17,41376	2,131165	13	0,3410402	0,0050009	63,85941
	60	275	0,1001603	0,0146228	-4,5621E-005	1	0,0146229	-0,1787536	17,4166	2,131161	13	0,3418705	0,0049991	63,83616
