EXPLAIN
TAG	EISPOT
TITLE	LABEL	Potentiostatic EIS	Test Identifier
DATE	LABEL	24/2/2026	Date
TIME	LABEL	4:12:47	Time
NOTES	NOTES	1	Notes...
	
PSTAT	PSTAT	REF3000-46189	Potentiostat
VDC	POTEN	1,99756E+000	F	Last Measured Potential (V)
FREQINIT	QUANT	1,00000E+005	Initial Freq. (Hz)
FREQFINAL	QUANT	1,00000E-001	Final Freq. (Hz)
PTSPERDEC	QUANT	1,00000E+001	Points/decade
VAC	QUANT	5,00000E+000	AC Voltage (mV rms)
AREA	QUANT	2,50000E+001	Sample Area (cm^2)
SPEED	SELECTOR	1	Optimize for:
DRIFTCOR	SELECTOR	0	Drift Correction
THD	SELECTOR	0	THD
ZGUESS	QUANT	2,00000E-002	Estimated Z (ohms)
EOC	QUANT	0,3422316	Open Circuit (V)
SEQUENCER	TOGGLE	TRUE	Run as Sequence
PSTATMODEL	IQUANT	6	Pstat Model
PSTATSECTION	LABEL	REF30K-46189	Pstat Section
PSTATSERIALNO	LABEL	46189	Pstat Serial Number
CTRLMODE	IQUANT	1	Control Mode
ELECTROMETER	IQUANT	0	RE=0 or CS=1
IESTAB	IQUANT	0	I/E Stability
CASPEED	IQUANT	3	Control Amp Speed
CONVENTION	IQUANT	1	Current Convention
ICHRANGE	IQUANT	2	Ich Range
ICHRANGEMODE	TOGGLE	F	Ich Auto Range
ICHOFFSETENABLE	TOGGLE	T	Ich Offset Enable
ICHOFFSET	QUANT	0	Ich Offset (V)
ICHFILTER	IQUANT	3	Ich Filter
VCHRANGE	IQUANT	2	Vch Range
VCHRANGEMODE	TOGGLE	F	Vch Auto Range
VCHOFFSETENABLE	TOGGLE	T	Vch Offset Enable
VCHOFFSET	QUANT	0	Vch Offset (V)
VCHFILTER	IQUANT	3	Vch Filter
ACHRANGE	IQUANT	2	Ach Range
ACHOFFSETENABLE	TOGGLE	F	Ach Offset Enable
ACHOFFSET	QUANT	0	Ach Offset (V)
ACHFILTER	IQUANT	1	Ach Filter
IERANGELOWERLIMIT	IQUANT	13	I/E Range Lower Limit
IERANGEMODE	TOGGLE	F	I/E AutoRange
IERANGE	IQUANT	13	I/E Range
POSFEEDENABLE	TOGGLE	F	Positive Feedback IR Comp
POSFEEDRESISTANCE	QUANT	0	Positive Feedback Resistance (ohm)
ACHSELECT	IQUANT	4	Ach Select
SENSECABLEID	IQUANT	14	Sense Cable ID
PWRCABLEID	IQUANT	8	Power Cable ID
DCCALDATE	LABEL	10/1/2025	DC Calibration Date
ACCALDATE	LABEL	10/1/2025	AC Calibration Date
THERMOSELECT	IQUANT	1	Thermo Select
FRAMEWORKVERSION	LABEL	7.10.1	Framework Version
INSTRUMENTVERSION	LABEL	4.80	Instrument Version
COMMVERSION	LABEL	5.10	Communications Version
CPUPLDVERSION	LABEL	6.00	CPU PLD Version
CTRLPLDVERSION	LABEL	3.21	CTRL PLD Version
PSTATPLDVERSION	LABEL	0.00	PSTAT PLD Version
BOOSTERDCCALDATE	LABEL	10/1/2025	Booster DC Calibration Date
ZCURVE	TABLE
	Pt	Time	Freq	Zreal	Zimag	Zsig	Zmod	Zphz	Idc	Vdc	IERange	Imod	Vmod	Temp
	#	s	Hz	ohm	ohm	V	ohm	°	A	V	#	A	V	°C
	0	3	100078,1	0,0129405	0,006114	1	0,0143121	25,28936	8,733527	1,994445	13	0,3507399	0,0049986	63,32126
	1	5	79453,13	0,0127724	0,0049627	1	0,0137026	21,23347	8,727559	1,994428	13	0,4786332	0,0065369	63,31574
	2	6	63140,62	0,0126398	0,0040256	1	0,0132654	17,6661	8,723428	1,99443	13	0,4829537	0,006389	63,31731
	3	9	50203,12	0,0125243	0,0032652	1	0,012943	14,61209	8,719516	1,994436	13	0,4841568	0,0062525	63,31905
	4	10	39890,62	0,0124329	0,0026328	1	0,0127086	11,9563	8,717181	1,994422	13	0,4934446	0,0062602	63,32273
	5	12	31640,63	0,0123618	0,0021183	1	0,012542	9,72389	8,716248	1,994447	13	0,4910876	0,0061515	63,32552
	6	14	25171,88	0,0123108	0,0017017	1	0,0124278	7,870152	8,717273	1,994455	13	0,4864354	0,00604	63,33253
	7	15	20015,62	0,0122681	0,0013561	1	0,0123429	6,307869	8,71624	1,994457	13	0,4802344	0,0059239	63,32942
	8	17	15890,62	0,0122365	0,0010753	1	0,0122836	5,021967	8,714761	1,994447	13	0,4724516	0,0058011	63,34307
	9	19	12609,38	0,0122118	0,0008471	1	0,0122412	3,968076	8,71339	1,994426	13	0,4632426	0,0056692	63,34006
	10	20	10078,13	0,0122018	0,0006612	1	0,0122197	3,101937	8,712804	1,994465	13	0,4497909	0,0054954	63,34918
	11	22	8015,625	0,0121888	0,0005021	1	0,0121991	2,358915	8,710217	1,994444	13	0,4408737	0,0053777	63,34236
	12	23	6328,125	0,0121835	0,0003608	1	0,0121888	1,696422	8,707976	1,994415	13	0,4334236	0,0052826	63,3485
	13	25	5015,625	0,0121782	0,0002426	1	0,0121806	1,141125	8,708726	1,994426	13	0,4266969	0,0051972	63,3396
	14	26	3984,375	0,0121879	0,0001393	1	0,0121887	0,6546837	8,706495	1,994439	13	0,4213973	0,0051361	63,33686
	15	28	3170,956	0,0121952	5,077657E-005	1	0,0121953	0,2385581	8,705944	1,994446	13	0,4168751	0,0050838	63,34502
	16	30	2527,573	0,0122088	-3,534112E-005	1	0,0122089	-0,1658545	8,70282	1,994418	13	0,4139018	0,0050532	63,352
	17	31	1976,103	0,012228	-0,0001296	1	0,0122287	-0,6073659	8,702892	1,994455	13	0,4116661	0,0050341	63,34657
	18	33	1577,524	0,0122515	-0,0002117	1	0,0122533	-0,989842	8,700274	1,994438	13	0,4095879	0,0050188	63,34623
	19	35	1265,625	0,0122866	-0,0002955	1	0,0122902	-1,377705	8,699905	1,994438	13	0,4076531	0,0050101	63,36073
	20	36	998,264	0,0123213	-0,0003908	1	0,0123275	-1,816754	8,698579	1,994454	13	0,4062258	0,0050077	63,34972
	21	38	796,875	0,0123696	-0,0004857	1	0,0123791	-2,248511	8,69753	1,994453	13	0,4039372	0,0050004	63,34579
	22	39	627,7902	0,0124273	-0,0006062	1	0,012442	-2,792439	8,695468	1,994454	13	0,4017836	0,004999	63,34355
	23	41	505,5147	0,0124944	-0,000722	1	0,0125153	-3,307224	8,691467	1,994418	13	0,3931333	0,0049582	63,34801
	24	42	397,9953	0,0125916	-0,0008659	1	0,0126213	-3,933886	8,692569	1,994461	13	0,3975594	0,0050404	63,35071
	25	44	315,5048	0,0127108	-0,0010223	1	0,0127518	-4,598264	8,690255	1,994434	13	0,3914841	0,0050056	63,35379
	26	45	252,4038	0,0128569	-0,0011869	1	0,0129116	-5,274348	8,690449	1,994429	13	0,3864379	0,0049978	63,36481
	27	47	198,6229	0,0130563	-0,0013744	1	0,0131285	-6,009301	8,686936	1,994438	13	0,380095	0,0049951	63,35495
	28	48	158,3615	0,013298	-0,0015493	1	0,0133879	-6,645375	8,687945	1,994449	13	0,3728548	0,0049949	63,34972
	29	50	125,558	0,013599	-0,0017114	1	0,0137062	-7,17295	8,68644	1,994445	13	0,3644201	0,0049968	63,36725
	30	51	100,4464	0,013936	-0,0018355	1	0,0140563	-7,503408	8,682045	1,994404	13	0,3551809	0,0049938	63,34909
	31	53	79,00281	0,0143426	-0,0019066	1	0,0144687	-7,57225	8,684317	1,994451	13	0,3453335	0,0049973	63,34904
	32	55	63,3446	0,0147306	-0,0019064	1	0,0148535	-7,374037	8,680891	1,994424	13	0,3360382	0,0049918	63,34489
	33	56	50,22321	0,0151248	-0,0018336	1	0,0152355	-6,91232	8,678988	1,99442	13	0,3272901	0,0049868	63,34341
	34	58	38,42213	0,0155307	-0,0016761	1	0,0156209	-6,159731	8,677629	1,994437	13	0,317703	0,004963	63,34163
	35	59	31,25	0,0157935	-0,0015204	1	0,0158665	-5,49866	8,674279	1,994419	13	0,3106137	0,0049285	63,34122
	36	61	24,93351	0,0160236	-0,0013354	1	0,0160792	-4,763958	8,671952	1,994408	13	0,3006552	0,0048344	63,33998
	37	63	19,86229	0,0162066	-0,0011557	1	0,0162478	-4,078908	8,673444	1,994435	13	0,3301779	0,0053647	63,33314
	38	64	15,625	0,0163431	-0,0009609	1	0,0163714	-3,364965	8,669026	1,994403	13	0,3048872	0,0049914	63,32917
	39	66	12,40079	0,016458	-0,0008075	1	0,0164778	-2,808909	8,666961	1,994398	13	0,30489	0,0050239	63,33276
	40	67	9,93114	0,0165166	-0,0006755	1	0,0165304	-2,3419	8,665567	1,994404	13	0,30118	0,0049786	63,32635
	41	69	7,944915	0,0165765	-0,0005678	1	0,0165862	-1,961949	8,666395	1,994424	13	0,3017806	0,0050054	63,32444
	42	71	6,317385	0,0166135	-0,0004688	1	0,0166201	-1,616349	8,665812	1,994429	13	0,3008324	0,0049999	63,32763
	43	73	5,008013	0,0166493	-0,0003843	1	0,0166538	-1,32226	8,664023	1,994425	13	0,3001775	0,0049991	63,32676
	44	76	3,945707	0,0166732	-0,0003195	1	0,0166763	-1,097727	8,664355	1,994431	13	0,2998002	0,0049995	63,33139
	45	78	3,158693	0,0166947	-0,0002663	1	0,0166969	-0,9139776	8,663214	1,994416	13	0,299655	0,0050033	63,3329
	46	81	2,504006	0,0167068	-0,000229	1	0,0167084	-0,7854474	8,664426	1,994426	13	0,2894568	0,0048429	63,3443
	47	86	1,998082	0,0167099	-0,0001811	1	0,0167109	-0,6210289	8,664637	1,994429	13	0,3042113	0,0050883	63,35358
	48	90	1,584686	0,0167225	-0,0001675	1	0,0167233	-0,5739889	8,663962	1,994423	13	0,3009826	0,0050363	63,35481
	49	95	1,266892	0,0167447	-0,0001182	1	0,0167451	-0,4045945	8,662999	1,994427	13	0,2997982	0,005022	63,36305
	50	101	0,999041	0,0167853	-7,696711E-005	1	0,0167855	-0,2627218	8,664758	1,994423	13	0,2978411	0,0050006	63,38206
	51	106	0,7923428	0,0167489	-6,772115E-005	1	0,0167491	-0,2316633	8,666311	1,994422	13	0,2986279	0,0050025	63,37718
	52	114	0,6334459	0,0167349	-8,649996E-005	1	0,0167351	-0,2961502	8,662301	1,994415	13	0,2987705	0,0050004	63,38155
	53	122	0,5040323	0,016742	-5,894592E-005	1	0,0167421	-0,2017282	8,656449	1,994416	13	0,2988802	0,0050042	63,39579
	54	131	0,400641	0,0167587	-2,815962E-005	1	0,0167587	-0,0962741	8,657884	1,994416	13	0,2986537	0,0050052	63,41091
	55	143	0,316723	0,0167766	-2,953207E-005	1	0,0167767	-0,1008581	8,664987	1,994415	13	0,2975061	0,0049913	63,47301
	56	157	0,2520161	0,0167794	-4,646816E-005	1	0,0167795	-0,1586719	8,679678	1,994411	13	0,2982368	0,0050043	63,5545
	57	179	0,2003205	0,0167216	-5,269365E-005	1	0,0167217	-0,1805514	8,674402	1,994412	13	0,2993042	0,0050049	63,57187
	58	205	0,1588983	0,0167119	-4,065263E-005	1	0,0167119	-0,1393752	8,640288	1,994415	13	0,2990105	0,0049971	63,50483
	59	237	0,1260081	0,0168028	-4,992916E-005	1	0,0168029	-0,1702527	8,636867	1,994417	13	0,2973479	0,0049963	63,49857
	60	267	0,1001603	0,0168534	-3,940631E-005	1	0,0168535	-0,1339674	8,632235	1,994416	13	0,2969714	0,005005	63,50536
