EXPLAIN
TAG	EISPOT
TITLE	LABEL	Potentiostatic EIS	Test Identifier
DATE	LABEL	24/2/2026	Date
TIME	LABEL	4:05:28	Time
NOTES	NOTES	1	Notes...
	
PSTAT	PSTAT	REF3000-46189	Potentiostat
VDC	POTEN	1,83302E+000	F	Last Measured Potential (V)
FREQINIT	QUANT	1,00000E+005	Initial Freq. (Hz)
FREQFINAL	QUANT	1,00000E-001	Final Freq. (Hz)
PTSPERDEC	QUANT	1,00000E+001	Points/decade
VAC	QUANT	5,00000E+000	AC Voltage (mV rms)
AREA	QUANT	2,50000E+001	Sample Area (cm^2)
SPEED	SELECTOR	1	Optimize for:
DRIFTCOR	SELECTOR	0	Drift Correction
THD	SELECTOR	0	THD
ZGUESS	QUANT	2,00000E-002	Estimated Z (ohms)
EOC	QUANT	0,3422316	Open Circuit (V)
SEQUENCER	TOGGLE	TRUE	Run as Sequence
PSTATMODEL	IQUANT	6	Pstat Model
PSTATSECTION	LABEL	REF30K-46189	Pstat Section
PSTATSERIALNO	LABEL	46189	Pstat Serial Number
CTRLMODE	IQUANT	1	Control Mode
ELECTROMETER	IQUANT	0	RE=0 or CS=1
IESTAB	IQUANT	0	I/E Stability
CASPEED	IQUANT	3	Control Amp Speed
CONVENTION	IQUANT	1	Current Convention
ICHRANGE	IQUANT	2	Ich Range
ICHRANGEMODE	TOGGLE	F	Ich Auto Range
ICHOFFSETENABLE	TOGGLE	T	Ich Offset Enable
ICHOFFSET	QUANT	0	Ich Offset (V)
ICHFILTER	IQUANT	3	Ich Filter
VCHRANGE	IQUANT	2	Vch Range
VCHRANGEMODE	TOGGLE	F	Vch Auto Range
VCHOFFSETENABLE	TOGGLE	T	Vch Offset Enable
VCHOFFSET	QUANT	0	Vch Offset (V)
VCHFILTER	IQUANT	3	Vch Filter
ACHRANGE	IQUANT	2	Ach Range
ACHOFFSETENABLE	TOGGLE	F	Ach Offset Enable
ACHOFFSET	QUANT	0	Ach Offset (V)
ACHFILTER	IQUANT	1	Ach Filter
IERANGELOWERLIMIT	IQUANT	13	I/E Range Lower Limit
IERANGEMODE	TOGGLE	F	I/E AutoRange
IERANGE	IQUANT	13	I/E Range
POSFEEDENABLE	TOGGLE	F	Positive Feedback IR Comp
POSFEEDRESISTANCE	QUANT	0	Positive Feedback Resistance (ohm)
ACHSELECT	IQUANT	4	Ach Select
SENSECABLEID	IQUANT	14	Sense Cable ID
PWRCABLEID	IQUANT	8	Power Cable ID
DCCALDATE	LABEL	10/1/2025	DC Calibration Date
ACCALDATE	LABEL	10/1/2025	AC Calibration Date
THERMOSELECT	IQUANT	1	Thermo Select
FRAMEWORKVERSION	LABEL	7.10.1	Framework Version
INSTRUMENTVERSION	LABEL	4.80	Instrument Version
COMMVERSION	LABEL	5.10	Communications Version
CPUPLDVERSION	LABEL	6.00	CPU PLD Version
CTRLPLDVERSION	LABEL	3.21	CTRL PLD Version
PSTATPLDVERSION	LABEL	0.00	PSTAT PLD Version
BOOSTERDCCALDATE	LABEL	10/1/2025	Booster DC Calibration Date
ZCURVE	TABLE
	Pt	Time	Freq	Zreal	Zimag	Zsig	Zmod	Zphz	Idc	Vdc	IERange	Imod	Vmod	Temp
	#	s	Hz	ohm	ohm	V	ohm	°	A	V	#	A	V	°C
	0	4	100078,1	0,0130899	0,006125	1	0,014452	25,07585	1,383188	1,830373	13	0,3471096	0,0049952	63,01017
	1	5	79453,13	0,012933	0,0049751	1	0,0138569	21,04082	1,383565	1,83043	13	0,4872637	0,0067297	63,00355
	2	7	63140,62	0,0127983	0,0040322	1	0,0134184	17,48732	1,382847	1,830418	13	0,4932066	0,0065999	63,00608
	3	9	50203,12	0,0126878	0,0032682	1	0,0131019	14,44466	1,382751	1,830423	13	0,4885596	0,0063868	63,01151
	4	11	39890,62	0,0125982	0,0026388	1	0,0128716	11,83019	1,381099	1,830423	13	0,4832737	0,0062098	63,01033
	5	13	31640,63	0,0125294	0,0021188	1	0,0127073	9,59847	1,379981	1,830431	13	0,4735838	0,0060104	63,01907
	6	16	25171,88	0,0124759	0,0016995	1	0,0125911	7,757132	1,380742	1,830419	13	0,4610214	0,0057997	63,01046
	7	18	20015,62	0,0124352	0,0013557	1	0,0125089	6,221966	1,380002	1,830424	13	0,4500641	0,0056264	63,01491
	8	19	15890,62	0,0124047	0,0010719	1	0,012451	4,938788	1,379481	1,830414	13	0,4382874	0,0054549	63,02632
	9	21	12609,38	0,0123811	0,000839	1	0,0124095	3,876922	1,379058	1,830428	13	0,4280103	0,00531	63,03142
	10	23	10078,13	0,0123686	0,0006474	1	0,0123855	2,996099	1,378048	1,830415	13	0,420692	0,0052096	63,02988
	11	24	8015,625	0,0123609	0,000487	1	0,0123705	2,256082	1,378031	1,830419	13	0,4160138	0,0051458	63,01591
	12	26	6328,125	0,0123577	0,0003449	1	0,0123625	1,598787	1,37796	1,830429	13	0,4124745	0,0050989	63,03258
	13	28	5015,625	0,0123529	0,0002252	1	0,012355	1,044386	1,378394	1,83043	13	0,4098076	0,0050629	63,02588
	14	29	3984,375	0,0123623	0,0001189	1	0,0123629	0,5509302	1,376496	1,830409	13	0,4077719	0,0050411	63,0329
	15	31	3170,956	0,0123736	2,202885E-005	1	0,0123736	0,1020046	1,377032	1,830437	13	0,4060438	0,0050241	63,02149
	16	33	2527,573	0,0123839	-6,81228E-005	1	0,0123841	-0,3151767	1,375635	1,830406	13	0,4048449	0,0050136	63,02235
	17	34	1976,103	0,0124026	-0,0001694	1	0,0124038	-0,7824962	1,37624	1,830431	13	0,4037797	0,0050084	63,03372
	18	36	1577,524	0,0124254	-0,0002592	1	0,0124281	-1,194914	1,375236	1,830416	13	0,4030871	0,0050096	63,03284
	19	38	1265,625	0,0124491	-0,0003535	1	0,0124541	-1,626713	1,375263	1,830423	13	0,4014814	0,0050001	63,0211
	20	39	998,264	0,0124842	-0,0004637	1	0,0124928	-2,127082	1,374505	1,830427	13	0,4004626	0,0050029	63,02571
	21	41	796,875	0,0125192	-0,0005766	1	0,0125325	-2,637074	1,374024	1,830413	13	0,3990136	0,0050006	63,02061
	22	42	627,7902	0,0125686	-0,0007141	1	0,0125889	-3,251612	1,372987	1,830404	13	0,3972422	0,0050008	63,04015
	23	44	505,5147	0,0126135	-0,0008708	1	0,0126435	-3,949417	1,373965	1,830407	13	0,3893109	0,0049603	63,02591
	24	45	397,9953	0,0126735	-0,0010635	1	0,0127181	-4,796888	1,373563	1,830417	13	0,3948343	0,0050442	63,02032
	25	47	315,5048	0,0127432	-0,0012933	1	0,0128086	-5,794996	1,373365	1,830416	13	0,3899272	0,0050079	63,02541
	26	48	252,4038	0,0128235	-0,001561	1	0,0129182	-6,940371	1,372881	1,830419	13	0,3862241	0,0049976	63,02213
	27	50	198,6229	0,0129323	-0,0019053	1	0,0130719	-8,381237	1,372567	1,830421	13	0,3817081	0,0049947	63,01634
	28	51	158,3615	0,013063	-0,0023045	1	0,0132648	-10,00474	1,37183	1,830419	13	0,3764605	0,0049968	63,01242
	29	53	125,558	0,0132347	-0,0027964	1	0,0135269	-11,93069	1,371487	1,830391	13	0,3691985	0,0049961	63,02933
	30	54	100,4464	0,0134497	-0,0033671	1	0,0138647	-14,05519	1,371356	1,830419	13	0,360294	0,0049966	63,0141
	31	56	79,00281	0,0137596	-0,0041041	1	0,0143586	-16,60816	1,370025	1,830402	13	0,3477406	0,0049938	63,01006
	32	58	63,3446	0,0141407	-0,0049095	1	0,0149687	-19,14631	1,370197	1,830424	13	0,3335366	0,0049931	63,02205
	33	59	50,22321	0,0146794	-0,005904	1	0,0158222	-21,9099	1,37039	1,830416	13	0,3152446	0,0049882	63,01748
	34	61	38,42213	0,0155486	-0,0072393	1	0,0171513	-24,96623	1,371037	1,830409	13	0,2893357	0,0049627	63,01723
	35	63	31,25	0,016455	-0,008394	1	0,0184723	-27,02712	1,370941	1,83043	13	0,2669986	0,0049322	63,02502
	36	64	24,93351	0,0177621	-0,0097371	1	0,0202559	-28,73141	1,370726	1,830417	13	0,2387883	0,0048369	63,02263
	37	66	19,86229	0,0194624	-0,0111186	1	0,0224145	-29,7387	1,37264	1,830428	13	0,2392492	0,0053627	63,0245
	38	67	15,625	0,0217271	-0,0124396	1	0,0250362	-29,79273	1,371369	1,830389	13	0,199798	0,0050022	63,02415
	39	68	12,40079	0,0243202	-0,0133973	1	0,0277662	-28,84904	1,372793	1,830431	13	0,1799522	0,0049966	63,02318
	40	70	9,93114	0,0271054	-0,0139035	1	0,0304632	-27,15519	1,373632	1,830419	13	0,1641265	0,0049998	63,03325
	41	72	7,944915	0,0299782	-0,0138895	1	0,0330395	-24,85932	1,37405	1,830404	13	0,1512762	0,0049981	63,03027
	42	74	6,317385	0,0328637	-0,0133419	1	0,0354687	-22,09604	1,372868	1,830405	13	0,1410802	0,0050039	63,02437
	43	76	5,008013	0,035464	-0,0123183	1	0,0375425	-19,15452	1,373556	1,8304	13	0,1332725	0,0050034	63,00269
	44	78	3,945707	0,0376907	-0,0109602	1	0,0392519	-16,21413	1,372732	1,830412	13	0,1271738	0,0049918	63,01316
	45	81	3,158693	0,0393198	-0,0096018	1	0,0404752	-13,72289	1,372643	1,830403	13	0,1235036	0,0049988	63,02723
	46	84	2,504006	0,0406334	-0,0081786	1	0,0414483	-11,38026	1,371627	1,83041	13	0,1167935	0,0048475	63,02073
	47	88	1,998082	0,0415942	-0,0069077	1	0,0421639	-9,429233	1,371141	1,830421	13	0,1205452	0,0050873	63,01786
	48	92	1,584686	0,0423216	-0,0057173	1	0,042706	-7,693643	1,369162	1,830413	13	0,1180072	0,0050425	63,01844
	49	97	1,266892	0,0428405	-0,0047638	1	0,0431046	-6,345082	1,367385	1,830404	13	0,1163286	0,0050162	63,00719
	50	102	0,999041	0,0432582	-0,0038614	1	0,0434302	-5,100992	1,366262	1,830411	13	0,1152532	0,0050066	63,01472
	51	109	0,7923428	0,043472	-0,0031821	1	0,0435883	-4,186546	1,365449	1,830414	13	0,1147945	0,0050044	63,00141
	52	115	0,6334459	0,0437065	-0,002618	1	0,0437848	-3,427873	1,363699	1,83041	13	0,1143175	0,0050058	63,00561
	53	125	0,5040323	0,0438847	-0,0020671	1	0,0439334	-2,696767	1,361538	1,83041	13	0,1136815	0,0049947	63,00078
	54	136	0,400641	0,0440313	-0,0017212	1	0,0440649	-2,238531	1,357276	1,830416	13	0,1135839	0,0050053	62,97523
	55	150	0,316723	0,0441978	-0,0014102	1	0,0442203	-1,827446	1,352211	1,830411	13	0,1129372	0,0049942	62,96198
	56	168	0,2520161	0,0444092	-0,0011583	1	0,0444243	-1,494055	1,350593	1,830414	13	0,1126121	0,0050028	62,98516
	57	189	0,2003205	0,0443324	-0,0009338	1	0,0443422	-1,206635	1,353903	1,830407	13	0,1127819	0,005001	63,03751
	58	216	0,1588983	0,0443534	-0,0007618	1	0,0443599	-0,983971	1,350055	1,830409	13	0,1126809	0,0049985	63,05511
	59	241	0,1260081	0,0443445	-0,0006395	1	0,0443491	-0,826273	1,351126	1,830409	13	0,1127951	0,0050024	63,08811
	60	279	0,1001603	0,0446354	-0,0005549	1	0,0446388	-0,7122211	1,347761	1,830417	13	0,1120044	0,0049998	63,10437
